# GHz S RI R 50

0.000000000000000e+00 -9.8208261880448255e-01  5.3523841129833778e-02  2.9402951258664959e-03  1.1188316975233998e-03  2.9402930672742297e-03  1.1188321913561255e-03 -9.8147761581759430e-01  5.3472745587168101e-02
1.000000000000000e-02 -9.5559057936760217e-01  1.9727662685259664e-01  7.0677005736241375e-03  2.1932645375027454e-02  7.0677005764563155e-03  2.1932645384486884e-02 -9.5575219504204034e-01  1.9687043585929062e-01
2.000000000000000e-02 -8.9048297000178867e-01  3.7091522791577791e-01  1.9867569111236133e-02  3.9478232682030330e-02  1.9867568553953829e-02  3.9478232549030483e-02 -8.9088790738264689e-01  3.7017342727144442e-01
3.000000000000000e-02 -7.9916210663933407e-01  5.2457193462137763e-01  3.7784733434269302e-02  5.0965941295104462e-02  3.7784732927222051e-02  5.0965940844658858e-02 -7.9992707078838166e-01  5.2358519036901652e-01
4.000000000000000e-02 -6.8506404314470926e-01  6.5642285282812463e-01  5.8437735143022293e-02  5.5591345747890097e-02  5.8437734574716280e-02  5.5591343148466255e-02 -6.8628364049685753e-01  6.5530590462368554e-01
5.000000000000000e-02 -5.5252397333967873e-01  7.6387052630620678e-01  7.9533490679232557e-02  5.3192223862517228e-02  7.9533486754830518e-02  5.3192220918173043e-02 -5.5425930933419110e-01  7.6275403672550290e-01
6.000000000000000e-02 -4.0634198641034780e-01  8.4504551320465793e-01  9.8945818938868613e-02  4.4233397750290573e-02  9.8945812477381850e-02  4.4233398388732088e-02 -4.0862833424417122e-01  8.4407195565815096e-01
7.000000000000001e-02 -2.5139279596448444e-01  8.9895705608984611e-01  1.1486991643838985e-01  2.9738424174467846e-02  1.1486990893066677e-01  2.9738430590927956e-02 -2.5423320601555499e-01  8.9827616209655015e-01
8.000000000000000e-02 -9.2404822945017909e-02  9.2543615560331061e-01  1.2595700485633415e-01  1.1152369436915367e-02  1.2595700106868607e-01  1.1152380189959935e-02 -9.5764964576121006e-02  9.2520733569434244e-01
9.000000000000001e-02  6.6182065166576237e-02  9.2503293936869035e-01  1.3138894743022650e-01 -9.8309358458982792e-03  1.3138894865054287e-01 -9.8309258749176790e-03  6.2380840299812564e-02  9.2540776284187631e-01
1.000000000000000e-01  2.2030107065857157e-01  8.9887264228907438e-01  1.3088825233811843e-01 -3.1441207806380211e-02  1.3088825125103690e-01 -3.1441204996367378e-02  2.1617687054913282e-01  8.9997823953783507e-01
1.100000000000000e-01  3.6626746128506132e-01  8.4843456579423293e-01  1.2466337635299629e-01 -5.1967838709633112e-02  1.2466338226070882e-01 -5.1967844883020468e-02  3.6199907289140232e-01  8.5032908030529186e-01
1.200000000000000e-01  5.0079350398910139e-01  7.7577149222025477e-01  1.1339230296308433e-01 -6.9906192584733656e-02  1.1339231558891048e-01 -6.9906211973576576e-02  4.9652270520901437e-01  7.7856205518468280e-01
1.300000000000000e-01  6.2096841083712850e-01  6.8308784067570782e-01  9.8084627919735712e-02 -8.4032603606267312e-02  9.8084635772858447e-02 -8.4032636232612742e-02  6.1686909512176735e-01  6.8684109455968789e-01
1.400000000000000e-01  7.2420084262893369e-01  5.7283008108307798e-01  8.0002084681764077e-02 -9.3463101917548086e-02  8.0002079855049382e-02 -9.3463141969261046e-02  7.2047697313680747e-01  5.7757623662610624e-01
1.500000000000000e-01  8.0820112030278179e-01  4.4767912056745124e-01  6.0563509829631032e-02 -9.7686231008463770e-02  6.0563493710705088e-02 -9.7686275601523001e-02  8.0506934550714104e-01  4.5339676918524502e-01
1.600000000000000e-01  8.7096845580178683e-01  3.1054871427818592e-01  4.1252712985326297e-02 -9.6578298064596863e-02  4.1252684157773487e-02 -9.6578346797720094e-02  8.6865229443142211e-01  3.1716613539270688e-01
1.700000000000000e-01  9.1080590638890335e-01  1.6460486607491481e-01  2.3529363792959789e-02 -9.0402777861132905e-02  2.3529320246754162e-02 -9.0402817766675372e-02  9.0952297223297174e-01  1.7199593671655322e-01
1.800000000000000e-01  9.2635389177528671e-01  1.3282868452131183e-02  8.7423902134727040e-03 -7.9795904395946596e-02  8.7423343693199818e-03 -7.9795928974503688e-02  9.2630321257379877e-01  2.1266582457416597e-02
1.900000000000000e-01  9.1664454157753783e-01 -1.3970121144813002e-01 -1.9547767041349466e-03 -6.5738555692032158e-02 -1.9548378425536229e-03 -6.5738563637662381e-02  9.1799497562512389e-01 -1.3135891636831326e-01
2.000000000000000e-01  8.8119171182966083e-01 -2.9035439372263683e-01 -7.6892463634570581e-03 -4.9512905648986305e-02 -7.6893122727006800e-03 -4.9512901678110462e-02  8.8406175467073322e-01 -2.8193471786941887e-01
2.100000000000000e-01  8.2008163438241055e-01 -4.3443780882359234e-01 -7.9504670588192074e-03 -3.2638176487205073e-02 -7.9505314554430551e-03 -3.2638156584126020e-02  8.2453196254969152e-01 -4.2625968578261109e-01
2.200000000000000e-01  7.3409346865364344e-01 -5.6753521058587209e-01 -2.6665183749262186e-03 -1.6781118573890218e-02 -2.6665746395099083e-03 -1.6781083970137677e-02  7.4011465001030541e-01 -5.5994277409814575e-01
2.300000000000000e-01  6.2480400970230265e-01 -6.8516597947844360e-01  7.7378332232392469e-03 -3.6369495004055278e-03  7.7377841262244226e-03 -3.6369029351681786e-03  6.3230339297623739e-01 -6.7850743617100195e-01
2.400000000000000e-01  4.9468209531638202e-01 -7.8294747374477103e-01  2.2310414259176192e-02  5.2210767880286231e-03  2.2310378067882199e-02  5.2211355034457122e-03  5.0348587777839282e-01 -7.7755738106420647e-01
2.500000000000000e-01  3.4713936890839142e-01 -8.5680299333962728e-01  3.9590588195926285e-02  8.5152791075467447e-03  3.9590564912183900e-02  8.5153459695152239e-03  3.5699413002181574e-01 -8.5297930477011019e-01
2.600000000000000e-01  1.8652427065831206e-01 -9.0320875700719050e-01  5.7690496385895650e-02  5.4462825056757940e-03  5.7690490194161760e-02  5.4463520726114011e-03  1.9710695743061327e-01 -9.0119237767691052e-01
2.700000000000000e-01  1.8037542517703942e-02 -9.1944977026558661e-01  7.4451481303593428e-02 -4.1435261409442656e-03  7.4451492651109674e-02 -4.1434547788352068e-03  2.8971703936414673e-02 -9.1940912348746140e-01
2.800000000000000e-01 -1.5243744557211181e-01 -9.0387134365600874e-01  8.7672563483231353e-02 -1.9659118547512774e-02  8.7672592324693696e-02 -1.9659052017686134e-02 -1.4156110618238876e-01 -9.0588352393019211e-01
2.900000000000000e-01 -3.1858287699974341e-01 -8.5606844557985740e-01  9.5391820279830564e-02 -3.9730643213880340e-02  9.5391864425478076e-02 -3.9730584338736323e-02 -3.0818450075585491e-01 -8.6012927360035973e-01
3.000000000000000e-01 -4.7395974729879214e-01 -7.7702202706259338e-01  9.6181163147539106e-02 -6.2307403957369875e-02  9.6181221634239811e-02 -6.2307358981745394e-02 -4.6444749528290341e-01 -7.8303469673394976e-01
3.100000000000000e-01 -6.1234956575411559e-01 -6.6912062253639604e-01  8.9402191817481935e-02 -8.4874798774473015e-02  8.9402260218003515e-02 -8.4874770666111626e-02 -6.0410301561905666e-01 -6.7691326975733668e-01
3.200000000000000e-01 -7.2810225745675738e-01 -5.3610295160282284e-01  7.5366665869482014e-02 -1.0477627665230453e-01  7.5366736428564660e-02 -1.0477626757230604e-01 -7.2146037159954024e-01 -5.4543682098202895e-01
3.300000000000000e-01 -8.1644369517383730e-01 -3.8289361631858415e-01  5.5354433581274815e-02 -1.1959156825526510e-01  5.5354506248613176e-02 -1.1959158003300291e-01 -8.1169624154429165e-01 -3.9347582733997127e-01
3.400000000000000e-01 -8.7374795109331582e-01 -2.1538441074771042e-01  3.1472694712441712e-02 -1.2750766017232426e-01  3.1472756786478984e-02 -1.2750769108634777e-01 -8.7113496497862331e-01 -2.2687739643406876e-01
3.500000000000000e-01 -8.9774105060684162e-01 -4.0146383494962863e-02  6.3655234659153138e-03 -1.2760656432416162e-01  6.3655757463951185e-03 -1.2760660968249110e-01 -8.9744203715465309e-01 -5.2173469256189937e-02
3.600000000000000e-01 -8.8763006880590067e-01  1.3590077824564245e-01 -1.7176365009570163e-02 -1.2001168913143008e-01 -1.7176325112976506e-02 -1.2001174105387413e-01 -8.8976655275422500e-01  1.2374765709144801e-01
3.700000000000000e-01 -8.4415199482506864e-01  3.0584236974669721e-01 -3.6632976341113357e-02 -1.0585800358347479e-01 -3.6632954658875984e-02 -1.0585806084148842e-01 -8.4878049892019358e-01  2.9399819831654761e-01
3.800000000000000e-01 -7.6955440287729604e-01  4.6314535574066884e-01 -5.0122973231579729e-02 -8.7094796135403871e-02 -5.0122968148725473e-02 -8.7094854797394775e-02 -7.7665032779910814e-01  4.5206134215643912e-01
3.900000000000000e-01 -6.6743136667384817e-01  6.0201347657291260e-01 -5.6647938281913605e-02 -6.6156201275792234e-02 -5.6647950979455908e-02 -6.6156257510155705e-02 -6.7689229938694961e-01  5.9214808368772687e-01
4.000000000000000e-01 -5.4249383212637614e-01  7.1770198050962020e-01 -5.6176789512358528e-02 -4.5574155317125477e-02 -5.6176810962682774e-02 -4.5574200694151752e-02 -5.5412791077162260e-01  7.0950167133181219e-01
4.100000000000000e-01 -4.0023632139733034e-01  8.0674139576200365e-01 -4.9564381233705969e-02 -2.7607773894091275e-02 -4.9564412965214459e-02 -2.7607808546269201e-02 -4.1376149953257269e-01  8.0061558677968359e-01
4.200000000000000e-01 -2.4656107051935300e-01  8.6704284135065390e-01 -3.8338717315891849e-02 -1.3956343206871094e-02 -3.8338754023124123e-02 -1.3956367315133243e-02 -2.6161558531276680e-01  8.6335072507542510e-01
4.300000000000000e-01 -8.7403500908515258e-02  8.9789036845481573e-01 -2.4410423924499505e-02 -5.5956553771859081e-03 -2.4410461679849858e-02 -5.5956659143761795e-03 -1.0355723591101799e-01  8.9691348613184652e-01
4.400000000000000e-01  7.1601165833432595e-02  8.9979820841846303e-01 -9.7673342224313536e-03 -2.7475265996890008e-03 -9.7673691753114768e-03 -2.7475316614383005e-03  5.4825997066885797e-02  9.0174135452066917e-01
4.500000000000000e-01  2.2536232306570284e-01  8.7432526918547981e-01  3.7920933751236360e-03 -4.9619874497018497e-03  3.7920627200403838e-03 -4.9619858826456037e-03  2.0847433964131179e-01  8.7929651625309169e-01
4.600000000000000e-01  3.6949240595205429e-01  8.2381618564668835e-01  1.4853842194422234e-02 -1.1279826126447961e-02  1.4853815477775079e-02 -1.1279817076205251e-02  3.5301011378331837e-01  8.3183430222189358e-01
4.700000000000000e-01  5.0037120105580812e-01  7.5116984192933312e-01  2.2496224090863406e-02 -2.0433260413451743e-02  2.2496308827660825e-02 -2.0433314130122542e-02  4.8480712151547595e-01  7.6216458776491924e-01
4.800000000000000e-01  6.1514089532658789e-01  6.5961958001253773e-01  2.6314286469033821e-02 -3.1050571073607945e-02  2.6314271738971027e-02 -3.1050552965767211e-02  6.0099018471789656e-01  6.7344072947672429e-01
4.900000000000000e-01  7.1166163528323290e-01  5.5257258804804077e-01  2.6373146682152890e-02 -4.1834614168182412e-02  2.6373136525862113e-02 -4.1834598311788554e-02  6.9938932389110131e-01  5.6899171039699858e-01
5.000000000000000e-01  7.8843566617744232e-01  4.3347506602367769e-01  2.3110734856068089e-02 -5.1699085297902458e-02  2.3110731107161917e-02 -5.1699068611883982e-02  7.7847050377999560e-01  4.5219317752477378e-01
5.100000000000000e-01  8.4453676994079507e-01  3.0572786902273019e-01  1.7211957911227423e-02 -5.9850130326557435e-02  1.7211955383626139e-02 -5.9850116463613524e-02  8.3726366970410981e-01  3.2638082509093047e-01
5.200000000000000e-01  8.7953582167060174e-01  1.7262111131426805e-01  9.4756286509827571e-03 -6.5813056869586828e-02  9.4756297134210108e-03 -6.5813046427909999e-02  8.7528359871090089e-01  1.9478212685458601e-01
5.300000000000000e-01  8.9342592433280010e-01  3.7287422428254974e-02  6.9560170039547188e-04 -6.9409510346133352e-02  6.9560501509840415e-04 -6.9409502426579686e-02  8.9246252676900018e-01  6.0474355516296041e-02
5.400000000000000e-01  8.8655630988820333e-01 -9.7323911836644544e-02 -8.4284110407865202e-03 -7.0698102970546114e-02 -8.4284017397917733e-03 -7.0698096692646567e-02  8.8907787956185325e-01 -7.3642201019926107e-02
5.500000000000000e-01  8.5956581849200531e-01 -2.2845865909733989e-01 -1.7342133749536224e-02 -6.9895589456200363e-02 -1.7342126317040182e-02 -6.9895586276617114e-02  8.6568755278516796e-01 -2.0485438570958864e-01
5.600000000000001e-01  8.1331731874661040e-01 -3.5354672526564124e-01 -2.5649241485768443e-02 -6.7295800256727364e-02 -2.5649234761295811e-02 -6.7295799898490952e-02  8.2306433505618071e-01 -3.3062266281438013e-01
5.700000000000001e-01  7.4886156084950783e-01 -4.7017438418452295e-01 -3.3091195186830270e-02 -6.3203152428213547e-02 -3.3091189303955978e-02 -6.3203155408087880e-02  7.6215997335612562e-01 -4.4855199948007607e-01
5.800000000000001e-01  6.6741123872884656e-01 -5.7604082520020350e-01 -3.9506430202627139e-02 -5.7888516041059393e-02 -3.9506425450184048e-02 -5.7888519735245003e-02  6.8408048761999807e-01 -5.5634581325684163e-01
5.900000000000001e-01  5.7035166542690086e-01 -6.6891286239445014e-01 -4.4780877055061452e-02 -5.1573373066509165e-02 -4.4780874459648609e-02 -5.1573379353936757e-02  5.9009786472357606e-01 -6.5175857066139675e-01
6.000000000000001e-01  4.5928462312871199e-01 -7.4659592537450503e-01 -4.8803409055891714e-02 -4.4440602550423355e-02 -4.8803409788999906e-02 -4.4440610070273730e-02  4.8169212391346039e-01 -7.3255898771528682e-01
6.100000000000000e-01  3.3608564510042854e-01 -8.0691624465216083e-01 -5.1435638405732564e-02 -3.6666221200034703e-02 -5.1435640413304139e-02 -3.6666227418656570e-02  3.6062065582605451e-01 -7.9651314176761145e-01
6.200000000000000e-01  2.0299341970296367e-01 -8.4775145811124542e-01 -5.2505645521924729e-02 -2.8464262301487107e-02 -5.2505645884246450e-02 -2.8464268891674336e-02  2.2900753768891224e-01 -8.4140964302786980e-01
6.300000000000000e-01  6.2689386888971979e-02 -8.6709680947278833e-01 -5.1829117351482115e-02 -2.0132208889848249e-02 -5.1829121060324029e-02 -2.0132213573822631e-02  8.9434799702102358e-02 -8.6512545113041273e-01
6.400000000000000e-01 -8.1629520692075477e-02 -8.6316975995393608e-01 -4.9257842392387695e-02 -1.2084395114145247e-02 -4.9257848505329722e-02 -1.2084399250627926e-02 -5.4976336398534977e-02 -8.6572542950368769e-01
6.500000000000000e-01 -2.2620464982074337e-01 -8.3456328302261518e-01 -4.4750920396891429e-02 -4.8584382080056974e-03 -4.4750928169489036e-02 -4.8584402822292438e-03 -2.0050794091020122e-01 -8.4163849907114185e-01
6.600000000000000e-01 -3.6671536376488517e-01 -7.8044111545317263e-01 -3.8454401908255734e-02  9.1702788179173940e-04 -3.8454409986043880e-02  9.1702549105049489e-04 -3.4284040839160035e-01 -7.9184750185000485e-01
6.700000000000000e-01 -4.9834509489005469e-01 -7.0075930379581608e-01 -3.0770212481194350e-02  4.6004741065486512e-03 -3.0770223600595909e-02  4.6004763537967376e-03 -4.7711140751220715e-01 -7.1612581402133557e-01
6.800000000000000e-01 -6.1592859941519995e-01 -5.9649068461394972e-01 -2.2388632958991357e-02  5.6583331220676995e-03 -2.2388643273443129e-02  5.6583370849313279e-03 -5.9806902464140321e-01 -6.1528340000555881e-01
6.900000000000001e-01 -7.1420349053321885e-01 -4.6983731810865431e-01 -1.4259092962256912e-02  3.8110621862403639e-03 -1.4259102099839976e-02  3.8110699019686875e-03 -7.0032816943273379e-01 -4.9138548335925908e-01
7.000000000000001e-01 -7.8816506371638295e-01 -3.2436244508603967e-01 -7.4818049843283097e-03 -8.2931518647049634e-04 -7.4818143580261129e-03 -8.2930074899155047e-04 -7.7873765528304140e-01 -3.4789452217546285e-01
7.100000000000001e-01 -8.3350286251299799e-01 -1.6500677435821101e-01 -3.1233582628391746e-03 -7.6750187190245773e-03 -3.1233627285227029e-03 -7.6750092942175930e-03 -8.2882980013833618e-01 -1.8968718606294374e-01
7.200000000000001e-01 -8.4705968681182076e-01  2.0722732807881301e-03 -1.9866749897387557e-03 -1.5676437210770687e-02 -1.9866767988259344e-03 -1.5676423397617375e-02 -8.4729360947348487e-01 -2.2889731252310454e-02
7.300000000000001e-01 -8.2726280963161569e-01  1.6984554811444880e-01 -4.3915300519979036e-03 -2.3457272038477944e-02 -4.3915281525352219e-03 -2.3457256773207480e-02 -8.3240121752985541e-01  1.4547200215591383e-01
7.400000000000000e-01 -7.7438665772579807e-01  3.3092734951888109e-01 -1.0036704086344864e-02 -2.9560235517128171e-02 -1.0036699251965072e-02 -2.9560219743063058e-02 -7.8429313479380491e-01  3.0799860243279265e-01
7.500000000000000e-01 -6.9062145284693655e-01  4.7817929574655932e-01 -1.7999032159681357e-02 -3.2747139722347558e-02 -1.7999024150759626e-02 -3.2747127042429471e-02 -7.0502315287304085e-01  4.5752678969674465e-01
7.600000000000000e-01 -5.7990234794070117e-01  6.0530536352625686e-01 -2.6884666941445350e-02 -3.2272773283235266e-02 -2.6884654205205218e-02 -3.2272762581724984e-02 -5.9838668975683640e-01  5.8771689313090958e-01
7.700000000000000e-01 -4.4751545085449673e-01  7.0731472122067940e-01 -3.5099537853598380e-02 -2.8052857719989773e-02 -3.5099524700456831e-02 -2.8052850623749861e-02 -4.6953268138921650e-01  6.9351780209444558e-01
7.800000000000000e-01 -2.9959935756284189e-01  7.8079602705313012e-01 -4.1164618536015947e-02 -2.0681622690835809e-02 -4.1164603889245789e-02 -2.0681620174278759e-02 -3.2446194859901811e-01  7.7143099597039277e-01
7.900000000000000e-01 -1.4261997321198375e-01  8.2398826471056463e-01 -4.3994995868044839e-02 -1.1302267207397257e-02 -4.3994981116944804e-02 -1.1302268593308344e-02 -1.6951009316368026e-01  8.1956696808894647e-01
8.000000000000000e-01  1.7093697931755480e-02  8.3665028066560609e-01 -4.3079240124349029e-02 -1.3744692291637994e-03 -4.3079224074519418e-02 -1.3744726778395771e-03 -1.0901988687318396e-02  8.3753582064128795e-01
8.100000000000001e-01  1.7369022957378583e-01  8.1984342986795355e-01 -3.8533851375602515e-02  7.5966212807936102e-03 -3.8533836580566458e-02  7.5966144702663786e-03  1.4558359914689681e-01  8.2620813965139472e-01
8.200000000000001e-01  3.2201083670623193e-01  7.7564241462195949e-01 -3.1041195996753389e-02  1.4310117259553529e-02 -3.1041182803205673e-02  1.4310106715320707e-02  2.9481514619716936e-01  7.8745860372032217e-01
8.300000000000001e-01  4.5769007236583364e-01  7.0686031014940975e-01 -2.1702256499942237e-02  1.7857156611394403e-02 -2.1702245560998597e-02  1.7857143116639530e-02  4.3240654626460845e-01  7.2389545114064746e-01
8.400000000000001e-01  5.7717256189098609e-01  6.1680931452619314e-01 -1.1843696784550705e-02  1.7827871302367584e-02 -1.1843687914246059e-02  1.7827855247709672e-02  5.5473450825481907e-01  6.3863757278036126e-01
8.500000000000001e-01  6.7767673449270804e-01  5.0911022213335078e-01 -2.8136642292721122e-03  1.4336695045287775e-02 -2.8136614129978710e-03  1.4336680812734297e-02  6.5891109319339247e-01  5.3513478533666281e-01
8.600000000000001e-01  7.5714245884573350e-01  3.8755554598211212e-01  4.2060110477603200e-03  7.9765044117290698e-03  4.2060145093650060e-03  7.9764889433835296e-03  7.4273793940080224e-01  4.1704087528791928e-01
8.700000000000001e-01  8.1416394009241300e-01  2.5600567434794730e-01  8.3525203043393510e-03 -2.8544093636167855e-04  8.3525162459431954e-03 -2.8545420623012752e-04  8.0465323752197704e-01  2.8811398182757231e-01
8.800000000000000e-01  8.4793907878407093e-01  1.1832404229814195e-01  9.1868431674782605e-03 -9.2525323149684671e-03  9.1868410983227556e-03 -9.2525458865847596e-03  8.4368500015410541e-01  1.5214994739860235e-01
8.900000000000000e-01  8.5822324079796741e-01 -2.1677623797645661e-02  6.7414855300859016e-03 -1.7668658135641311e-02  6.7414790250489593e-03 -1.7668668274479084e-02  8.5942250762890104e-01  1.2928107816263920e-02
9.000000000000000e-01  8.4529891421139536e-01 -1.6028324793037479e-01  1.5054260584638963e-03 -2.4393733262198455e-02  1.5054178957998447e-03 -2.4393741765322902e-02  8.5198424455536681e-01 -1.2583926172762752e-01
9.100000000000000e-01  8.0995070004768910e-01 -2.9391366407375824e-01 -5.6533695663647208e-03 -2.8562916358996365e-02 -5.6533787762132236e-03 -2.8562922969260707e-02  8.2200590270676599e-01 -2.6055365641186495e-01
9.200000000000000e-01  7.5345919859563304e-01 -4.1918151037473078e-01 -1.3620839908307467e-02 -2.9707116653801779e-02 -1.3620816727084257e-02 -2.9707132594489385e-02  7.7061945110360408e-01 -3.8778625658003146e-01
