# GHz S RI R 50

0.000000000000000e+00  5.0671493313834961e-03  3.9400135005020261e-03  9.8979963868241938e-01 -4.8378033103983753e-02  9.8979962961172396e-01 -4.8378032733196602e-02  5.0912961475422999e-03  4.0628434904399716e-03
1.000000000000000e-02  6.4428821199045486e-03 -1.0374513985473843e-02  9.6952577342495516e-01 -1.8553142585198407e-01  9.6952577341995672e-01 -1.8553142583760629e-01  7.1304891652843629e-03 -1.0406565751743545e-02
2.000000000000000e-02  2.2364288823158752e-03 -2.4635393538721503e-02  9.1415607965640322e-01 -3.5606762795006164e-01  9.1415608003037008e-01 -3.5606762777477746e-01  4.9697157548320402e-03 -2.5367672229956097e-02
3.000000000000000e-02 -9.0113255429034120e-03 -3.7280731389786909e-02  8.3117832934822444e-01 -5.1181829061617712e-01  8.3117832966458272e-01 -5.1181829020500025e-01 -3.2906592334965065e-03 -4.0130606580759731e-02
4.000000000000000e-02 -2.5606131483077863e-02 -4.5472957875350828e-02  7.2296481901622123e-01 -6.4917439364782292e-01  7.2296481968218318e-01 -6.4917439360087936e-01 -1.6687383177822937e-02 -5.2329760817897600e-02
5.000000000000000e-02 -4.5599507501420500e-02 -4.7658050458040772e-02  5.9305856149288161e-01 -7.6421823543489076e-01  5.9305856189311290e-01 -7.6421823510416598e-01 -3.4133629220517880e-02 -6.0538301829996435e-02
6.000000000000000e-02 -6.6848979757256691e-02 -4.2985395239096821e-02  4.4582888344897642e-01 -8.5366584902751863e-01  4.4582888232774553e-01 -8.5366584971907455e-01 -5.4355206536790823e-02 -6.3695630783709933e-02
7.000000000000001e-02 -8.7103872863333209e-02 -3.1305353994198676e-02  2.8620130785978526e-01 -9.1508828077180726e-01  2.8620130771935082e-01 -9.1508828031582912e-01 -7.5859338906626952e-02 -6.1114843672437337e-02
8.000000000000000e-02 -1.0419882209495851e-01 -1.3167668881992355e-02  1.1943558350223699e-01 -9.4702182854396144e-01  1.1943558428451514e-01 -9.4702182843897331e-01 -9.7013803564448484e-02 -5.2537246430164553e-02
9.000000000000001e-02 -1.1625236782113473e-01  1.0246171203557948e-02 -4.9098235895596157e-02 -9.4900791589221067e-01 -4.9098234589844025e-02 -9.4900791593348144e-01 -1.1615909327868604e-01 -3.8159439097867426e-02
1.000000000000000e-01 -1.2183324743736304e-01  3.7243874680226302e-02 -2.1413079305289376e-01 -9.2155953206835262e-01 -2.1413079258299977e-01 -9.2155953212621422e-01 -1.3172690057998149e-01 -1.8629644245136044e-02
1.100000000000000e-01 -1.2003041822616488e-01  6.5663469555439558e-02 -3.7062353407210868e-01 -8.6602090441545210e-01 -3.7062353416169036e-01 -8.6602090449020031e-01 -1.4227687444487555e-01  4.9940512310864722e-03
1.200000000000000e-01 -1.1073548227129630e-01  9.3420770734553349e-02 -5.1406789738928982e-01 -7.8473722588316352e-01 -5.1406789768971239e-01 -7.8473722660727652e-01 -1.4686872216158495e-01  3.1250728738254324e-02
1.300000000000000e-01 -9.4400577594123042e-02  1.1835559074437352e-01 -6.4047236584139922e-01 -6.8058549073809704e-01 -6.4047235397332103e-01 -6.8058550215735369e-01 -1.4487589995429551e-01  5.8467591434451530e-02
1.400000000000000e-01 -7.2097117031294566e-02  1.3853121025388926e-01 -7.4645814386800891e-01 -5.5698906201501186e-01 -7.4645814437774294e-01 -5.5698906175174168e-01 -1.3614551998552976e-01  8.4823227575350629e-02
1.500000000000000e-01 -4.5425220837819767e-02  1.5240381905113382e-01 -8.2930023335797109e-01 -4.1778233744116366e-01 -8.2930021658311270e-01 -4.1778232848110025e-01 -1.2103176683367722e-01  1.0847991138928531e-01
1.600000000000000e-01 -1.6379143820508486e-02  1.5896091227733061e-01 -8.8694417233083267e-01 -2.6709368759847274e-01 -8.8694417245312707e-01 -2.6709368709319925e-01 -1.0039384787334193e-01  1.2772320756420719e-01
1.700000000000000e-01  1.2820902614884812e-02  1.5781619779100189e-01 -9.1800335683124734e-01 -1.0924553865726133e-01 -9.1800335615724660e-01 -1.0924555454724989e-01 -7.5557421021217569e-02  1.4109910742376319e-01
1.800000000000000e-01  3.9917201078213969e-02  1.4925499367180889e-01 -9.2174773989208281e-01  5.1326616311057838e-02 -9.2174773976498503e-01  5.1326640755147472e-02 -4.8240300968989000e-02  1.4753954767439448e-01
1.900000000000000e-01  6.2810124438880482e-02  1.3422613151104304e-01 -8.9809247257519309e-01  2.1013905362376761e-01 -8.9809246807576515e-01  2.1013907864950715e-01 -2.0445933340488363e-02  1.4646899227548296e-01
2.000000000000000e-01  7.9749671215225831e-02  1.1428161347341348e-01 -8.4760483081130100e-01  3.6271527344219312e-01 -8.4760482306467511e-01  3.6271528927337371e-01  5.6727000453499410e-03  1.3788564497719444e-01
2.100000000000000e-01  8.9507252944403121e-02  9.1461714752382212e-02 -7.7151685115037294e-01  5.0464499756264569e-01 -7.7151684205953319e-01  5.0464501213171009e-01  2.7973649292055106e-02  1.2240713340710115e-01
2.200000000000000e-01  9.1517295148719216e-02  6.8131248840866632e-02 -6.7175918614976382e-01  6.3166050907153193e-01 -6.7175918526426859e-01  6.3166050968761467e-01  4.4505545115633274e-02  1.0127398777829003e-01
2.300000000000000e-01  8.5968753021449934e-02  4.6771707942539174e-02 -5.5098532038733672e-01  7.3973568811743762e-01 -5.5098531923839378e-01  7.3973568912333065e-01  5.3692392681896031e-02  7.6300106084357208e-02
2.400000000000000e-01  7.3836684509708261e-02  2.9741138798739693e-02 -4.1259800554735226e-01  8.2522701527367115e-01 -4.1259800515154699e-01  8.2522701572603863e-01  5.4514485559108990e-02  4.9765825100518420e-02
2.500000000000000e-01  5.6833482950224418e-02  1.9021277303100416e-02 -2.6073050344010990e-01  8.8504137770748215e-01 -2.6073051827095406e-01  8.8504137333969646e-01  4.6657841160808650e-02  2.4248550557278637e-02
2.600000000000000e-01  3.7275403326762525e-02  1.5976799496581894e-02 -1.0018021548840994e-01  9.1683421647574126e-01 -1.0018019854056971e-01  9.1683421831698975e-01  3.0614424153125749e-02  2.3978660337608138e-03
2.700000000000000e-01  1.7863006955843863e-02  2.1161739259137783e-02  6.3730663600369455e-02  9.1920263457087015e-01  6.3730664142348459e-02  9.1920263298429228e-01  7.7045932862895711e-03 -1.3328384537243847e-02
2.800000000000000e-01  1.3931705628586963e-03  3.4205471316794939e-02  2.2537157613995445e-01  8.9185175655502746e-01  2.2537156034727479e-01  8.9185176044812509e-01 -1.9993741638055035e-02 -2.0938651334644370e-02
2.900000000000000e-01 -9.5660504443555311e-03  5.3807447643982959e-02  3.7908464062872849e-01  8.3569447968019728e-01  3.7908463977949480e-01  8.3569447762908089e-01 -4.9815731608328251e-02 -1.9154981962305279e-02
3.000000000000000e-01 -1.2992069016843900e-02  7.7853777651507555e-02  5.1950510828603935e-01  7.5285213353054337e-01  5.1950510827609175e-01  7.5285213283944841e-01 -7.8767341784499470e-02 -7.5914721389437750e-03
3.100000000000000e-01 -7.6661338861320361e-03  1.0364626811163388e-01  6.4187597828591014e-01  6.4654924598117769e-01  6.4187597770204174e-01  6.4654924394372237e-01 -1.0383894353457378e-01  1.3167898960118093e-02
3.200000000000000e-01  6.6680617826195398e-03  1.2821439277693633e-01  7.4231658640302745e-01  5.2090566686368378e-01  7.4231658729652805e-01  5.2090566589483955e-01 -1.2233091943740859e-01  4.1609711621345656e-02
3.300000000000000e-01  2.9273766513010543e-02  1.4866097020858327e-01  8.1799120264547787e-01  3.8064671888859392e-01  8.1799120366652756e-01  3.8064672047046444e-01 -1.3214023674902209e-01  7.5446173780187670e-02
3.400000000000000e-01  5.8512993856622640e-02  1.6249103087368533e-01  8.6718380944231199e-01  2.3079621880950607e-01  8.6718380950048068e-01  2.3079621769399397e-01 -1.3197374248468982e-01  1.1185494970670759e-01
3.500000000000000e-01  9.2045483891885604e-02  1.6787623148118375e-01  8.8925075207938198e-01  7.6376040460174655e-02  8.8925075124181108e-01  7.6376037698371008e-02 -1.2145816754449790e-01  1.4776916793286185e-01
3.600000000000000e-01  1.2709401198669218e-01  1.6382751157206810e-01  8.8449491014199855e-01 -7.7835653518690207e-02  8.8449490983173140e-01 -7.7835653823519813e-02 -1.0114812345054114e-01  1.8017304660811656e-01
3.700000000000000e-01  1.6073484596777315e-01  1.5026429916729397e-01  8.5397902018300820e-01 -2.2746317235628186e-01  8.5397902131571979e-01 -2.2746317217503909e-01 -7.2443367214318016e-02  2.0636598878959311e-01
3.800000000000000e-01  1.9017959715032845e-01  1.2799413703435156e-01  7.9934712932468033e-01 -3.6861142973655309e-01  7.9934712702349209e-01 -3.6861143057082729e-01 -3.7444130098255216e-02  2.2417935148817469e-01
3.900000000000000e-01  2.1302100402854157e-01  9.8611877992480668e-02  7.2264318872664368e-01 -4.9786693305865443e-01  7.2264318582525133e-01 -4.9786693313651714e-01  1.2375937239251737e-03  2.3212827485893522e-01
4.000000000000000e-01  2.2743146780790396e-01  6.4347651034673603e-02  6.2619109381084082e-01 -6.1224806441334256e-01  6.2619109326394806e-01 -6.1224806425842671e-01  4.0682576843927364e-02  2.2950822814626676e-01
4.100000000000000e-01  2.3230965338378984e-01  2.7876883889104268e-02  5.1252627973406151e-01 -7.0912825701117166e-01  5.1252627883926616e-01 -7.0912825723065831e-01  7.7873878458555187e-02  2.1643916685111342e-01
4.200000000000000e-01  2.2737730708005080e-01 -7.8933017703050092e-03  3.8439137789481181e-01 -7.8616545459427112e-01  3.8439137932782802e-01 -7.8616545625114076e-01  1.0990626564948525e-01  1.9386866787297630e-01
4.300000000000000e-01  2.1322552346212220e-01 -4.0055911631077162e-02  2.4477973996606672e-01 -8.4125886977381736e-01  2.4477974061846433e-01 -8.4125886905384561e-01  1.3419410590722494e-01  1.6353334868163846e-01
4.400000000000000e-01  1.9130622548251372e-01 -6.5948980501575938e-02  9.7010351884080512e-02 -8.7255303145050744e-01  9.7010351771641634e-02 -8.7255303108199123e-01  1.4867634447126965e-01  1.2787753916933670e-01
4.500000000000000e-01  1.6386316140725515e-01 -8.3408994664813135e-02 -5.5185334648301804e-02 -8.7851683290824167e-01 -5.5185334703357999e-02 -8.7851683313295192e-01  1.5201867585293566e-01  8.9921087394538440e-02
4.600000000000000e-01  1.3378445703255565e-01 -9.1017349494140115e-02 -2.0760838196370554e-01 -8.5808271943644288e-01 -2.0760838188853359e-01 -8.5808271659102775e-01  1.4379364117838056e-01  5.3062044537904481e-02
4.700000000000000e-01  1.0436991936800616e-01 -8.8316714783747127e-02 -3.5559818835425938e-01 -8.1085429339239723e-01 -3.5559857168553594e-01 -8.1085514207268372e-01  1.2461911024495835e-01  2.0808283556492911e-02
4.800000000000000e-01  7.9009116014767664e-02 -7.5957457809717563e-02 -4.9413971596932560e-01 -7.3733814594255109e-01 -4.9413972231100250e-01 -7.3733814451768875e-01  9.6213967541383894e-02 -3.5573991218850309e-03
4.900000000000000e-01  6.0790766888821041e-02 -5.5731942603787291e-02 -6.1808840422097622e-01 -6.3915971068660649e-01 -6.1808840406735133e-01 -6.3915971060968269e-01  6.1337100789170637e-02 -1.7353967767491586e-02
5.000000000000000e-01  5.2090482115811687e-02 -3.0453525771555606e-02 -7.2250934944286538e-01 -5.1919296959531358e-01 -7.2250935123480819e-01 -5.1919297172665480e-01  2.3575521200722781e-02 -1.8866018092174915e-02
5.100000000000000e-01  5.4204656578182422e-02 -3.6690912455426133e-03 -8.0309319000973045e-01 -3.8155430768970822e-01 -8.0309318655818318e-01 -3.8155431464456119e-01 -1.3014506796044670e-02 -7.6305901848951127e-03
5.200000000000000e-01  6.7114560594314560e-02  2.0775525442383615e-02 -8.5656631828075902e-01 -2.3141138789786464e-01 -8.5656631807289851e-01 -2.3141138788334464e-01 -4.4379034930873223e-02  1.5431040242758022e-02
5.300000000000000e-01  8.9442033349811476e-02  3.9247495679086856e-02 -8.8101366513600854e-01 -7.4626832122311873e-02 -8.8101366487593069e-01 -7.4626831840548052e-02 -6.6972118975444236e-02  4.8079631075317278e-02
5.400000000000000e-01  1.1861951216585057e-01  4.8821187803124333e-02 -8.7603590392052322e-01  8.2708067253047329e-02 -8.7603590507454920e-01  8.2708059504380760e-02 -7.8200318930288254e-02  8.7025025760925814e-02
5.500000000000000e-01  1.5124535146853130e-01  4.7658482755564308e-02 -8.4270674090941644e-01  2.3476353405234082e-01 -8.4270673766457627e-01  2.3476353368509850e-01 -7.6721198698774390e-02  1.2834671590776395e-01
5.600000000000001e-01  1.8354760136115195e-01  3.5204993155034336e-02 -7.8333799242292712e-01  3.7638175462235224e-01 -7.8333799345953903e-01  3.7638175383355188e-01 -6.2543457193762655e-02  1.6798072737606679e-01
5.700000000000001e-01  2.1186201092888982e-01  1.2191943695651630e-02 -7.0114151725143192e-01  5.0334644793587680e-01 -7.0114151774924949e-01  5.0334644809929718e-01 -3.6941127233151398e-02  2.0218087651122474e-01
5.800000000000001e-01  2.3304362623420588e-01 -1.9535201373029148e-02 -5.9983827785545263e-01  6.1247821312940820e-01 -5.9983828350652924e-01  6.1247820760770455e-01 -2.2156055945320371e-03  2.2788201942940128e-01
5.900000000000001e-01  2.4476023128343199e-01 -5.7296777058733712e-02 -4.8331582940242901e-01  7.0157933251552707e-01 -4.8331582894037334e-01  7.0157933177596654e-01  3.8619392038952698e-02  2.4293076071482633e-01
6.000000000000001e-01  2.4565723515415422e-01 -9.7905468475707608e-02 -3.5537812928881041e-01  7.6927757146266784e-01 -3.5537812947878744e-01  7.6927757133063712e-01  8.2170071965311967e-02  2.4618691079991784e-01
6.100000000000000e-01  2.3540526760592306e-01 -1.3798966641151172e-01 -2.1960282472249940e-01  8.1481239064003708e-01 -2.1960282464961839e-01  8.1481239076309453e-01  1.2496666276747895e-01  2.3751751001356228e-01
6.200000000000000e-01  2.1466583638834202e-01 -1.7428272616161994e-01 -7.9314278180366904e-02  8.3783841035363404e-01 -7.9314278100401481e-02  8.3783841000209403e-01  1.6371785612893663e-01  2.1772697657139431e-01
6.300000000000000e-01  1.8499695105602326e-01 -2.0387189654393287e-01  6.2365817682939993e-02  8.3826604427929330e-01  6.2365818388451115e-02  8.3826604390829063e-01  1.9551711001824831e-01  1.8844614659198666e-01
6.400000000000000e-01  1.4871992358497682e-01 -2.2440536768666919e-01  2.0240847020565411e-01  8.1616089986798523e-01  2.0240846881555852e-01  8.1616090063059821e-01  2.1800684924334274e-01  1.5200077309240198e-01
6.500000000000000e-01  1.0875768732931215e-01 -2.3427297074895778e-01  3.3774500660364370e-01  7.7174102923763632e-01  3.3774500758153897e-01  7.7174102963872260e-01  2.2952158469130640e-01  1.1127012602179442e-01
6.600000000000000e-01  6.8435039711286977e-02 -2.3275745849725737e-01  4.6514750295052487e-01  7.0544323184257329e-01  4.6514750321139720e-01  7.0544323193598113e-01  2.2921300618844920e-01  6.9521251599792167e-02
6.700000000000000e-01  3.1234723626906206e-02 -2.2015432890561648e-01  5.8115488923682779e-01  6.1807106487531316e-01  5.8115488978282692e-01  6.1807106419721292e-01  2.1715898907227710e-01  3.0210389700645577e-02
6.800000000000000e-01  4.9976019150841516e-04 -1.9783763033763518e-01  6.8207972486204893e-01  5.1099440208246327e-01  6.8207972471239120e-01  5.1099440371200400e-01  1.9443934155876291e-01 -3.2643186944051536e-03
6.900000000000001e-01 -2.0913107323178283e-02 -1.6824027353439919e-01  7.6412527578691036e-01  3.8637146164053193e-01  7.6412527621580451e-01  3.8637146210973394e-01  1.6315019442203763e-01 -2.7861736271457421e-02
7.000000000000001e-01 -3.1001995497439407e-02 -1.3470834755619410e-01  8.2362675440660194e-01  2.4732851789288773e-01  8.2362675275332264e-01  2.4732852191997781e-01  1.2631640300029404e-01 -4.1232963956980846e-02
7.100000000000001e-01 -2.8955118350469031e-02 -1.0120488440364486e-01  8.5740142937715957e-01  9.8044669209083557e-02  8.5740143044505102e-01  9.8044669498338621e-02  8.7672036512707371e-02 -4.2049709296845567e-02
7.200000000000001e-01 -1.5374372361541662e-02 -7.1865084746334310e-02  8.6315154118995785e-01 -5.6328951264280926e-02  8.6315154181978770e-01 -5.6328951251135420e-02  5.1297510874546107e-02 -3.0257415132216300e-02
7.300000000000001e-01  7.6845817384713355e-03 -5.0452113680892634e-02  8.3985557570262404e-01 -2.0993461695127186e-01  8.3985557539933309e-01 -2.0993461701828356e-01  2.1145600406547720e-02 -7.1850412066147562e-03
7.400000000000000e-01  3.6912832997145810e-02 -3.9808490158967577e-02  7.8802389806491213e-01 -3.5665085323873247e-01  7.8802389776880355e-01 -3.5665085313564238e-01  5.2857365527673658e-04  2.4553190996457745e-02
7.500000000000000e-01  6.8174817179229019e-02 -4.1423390622371617e-02  7.0974758264812232e-01 -4.9062715851428207e-01  7.0974758328206766e-01 -4.9062715805345691e-01 -8.3262006585755680e-03  6.1369426262713717e-02
7.600000000000000e-01  9.7086203063832005e-02 -5.5213259963771834e-02  6.0852404683062011e-01 -6.0680309059183835e-01  6.0852404653888770e-01 -6.0680309119386622e-01 -4.5578262452113764e-03  9.9174870700193957e-02
7.700000000000000e-01  1.1962422825128072e-01 -7.9569241472752295e-02  4.8887336705141043e-01 -7.0129335845915775e-01  4.8887336654994062e-01 -7.0129335868447462e-01  1.1273435660412293e-02  1.3392075598798461e-01
7.800000000000000e-01  1.3264322425591896e-01 -1.1163991529270184e-01  3.5586217855882663e-01 -7.7156991529511099e-01  3.5586217773771123e-01 -7.7156991488379756e-01  3.7349048304020610e-02  1.6209035100243080e-01
7.900000000000000e-01  1.3421151378602503e-01 -1.4777136219364484e-01  2.1463386269425075e-01 -8.1643575386859746e-01  2.1463386196931239e-01 -8.1643575486056474e-01  7.0916121486863756e-02  1.8105962206469936e-01
8.000000000000000e-01  1.2373816155258249e-01 -1.8400029670960488e-01  7.0037406601470370e-02 -8.3582557547117542e-01  7.0037406843226083e-02 -8.3582557651385636e-01  1.0868682533541950e-01  1.8928418793847035e-01
8.100000000000001e-01  1.0191716382695776e-01 -2.1650979962112196e-01 -7.3597121667714288e-02 -8.3052200394279674e-01 -7.3597121982142064e-02 -8.3052200465129489e-01  1.4723010920003751e-01  1.8632412479531857e-01
8.200000000000001e-01  7.0543353039743517e-02 -2.4199423805980466e-01 -2.1253222209884914e-01 -8.0186337575972444e-01 -2.1253222186917653e-01 -8.0186337563737453e-01  1.8330056469559119e-01  1.7274828103011308e-01
8.300000000000001e-01  3.2256743857565648e-02 -2.5791634079446119e-01 -3.4358040087525793e-01 -7.5149601191335980e-01 -3.4358039411761360e-01 -7.5149601456468673e-01  2.1408358184094575e-01  1.4996577587843804e-01
8.400000000000001e-01 -9.7364361378230319e-03 -2.6266562963187967e-01 -4.6398623707942666e-01 -6.8121334318800408e-01 -4.6398623766534475e-01 -6.8121334325804495e-01  2.3735841623765364e-01  1.2003010394230790e-01
8.500000000000001e-01 -5.1943437363209791e-02 -2.5563904799492193e-01 -5.7128096462790245e-01 -5.9288492251743863e-01 -5.7128095967182935e-01 -5.9288492693161232e-01  2.5159666639184841e-01  8.5440830157862496e-02
8.600000000000001e-01 -9.0856890931780357e-02 -2.3726422980097131e-01 -6.6315380747938213e-01 -4.8847693865272157e-01 -6.6315382259585953e-01 -4.8847694844540601e-01  2.5601763354594909e-01  4.8953770617762578e-02
8.700000000000001e-01 -1.2322208372935324e-01 -2.0896986148508317e-01 -7.3736224284676921e-01 -3.7013223677364299e-01 -7.3736224003222706e-01 -3.7013224306042847e-01  2.5060974191446461e-01  1.3395932969123090e-02
8.800000000000000e-01 -1.4630296754328698e-01 -1.7310529066256009e-01 -7.9171314706298279e-01 -2.4030164369078044e-01 -7.9171314714569141e-01 -2.4030164333884896e-01  2.3612706800698813e-01 -1.8518928468771751e-02
8.900000000000000e-01 -1.5814396656670909e-01 -1.3279241014987142e-01 -8.2412746526196479e-01 -1.0188172196892430e-01 -8.2412746477862298e-01 -1.0188172251415495e-01  2.1405182039785492e-01 -4.4383223904469159e-02
9.000000000000000e-01 -1.5780808828795270e-01 -9.1694542351541064e-02 -8.3278562216769236e-01  4.1674033156252760e-02 -8.3278562207862750e-01  4.1674033140040881e-02  1.8650915885413127e-01 -6.2292425982646234e-02
9.100000000000000e-01 -1.4555860253226177e-01 -5.3694297388186027e-02 -8.1635011612848007e-01  1.8630672702720982e-01 -8.1635011635618371e-01  1.8630672741806070e-01  1.5612172114463121e-01 -7.1033729323909542e-02
9.200000000000000e-01 -1.2293756769429948e-01 -2.2486817192962708e-02 -7.7423295483829835e-01  3.2741305951159816e-01 -7.7423301771702169e-01  3.2741291897842184e-01  1.2579190147360816e-01 -7.0240722023488494e-02
