! Created with skrf 1.8.0 (http://scikit-rf.org).
# GHz S RI R 40.0 
!freq ReS11 ImS11 ReS12 ImS12 ReS13 ImS13
! ReS14 ImS14
! ReS21 ImS21 ReS22 ImS22 ReS23 ImS23
! ReS24 ImS24
! ReS31 ImS31 ReS32 ImS32 ReS33 ImS33
! ReS34 ImS34
! ReS41 ImS41 ReS42 ImS42 ReS43 ImS43
! ReS44 ImS44
!
0.0 0.009395159653876849 0.015652911676631246 0.9866145111821493 -0.05086964139287073 0.001867531765097439 0.000846502726418679 -0.00183025827637548 -0.0004738064642358256
 0.9866145121747181 -0.050869641614230576 0.00941410706318489 0.01581210462276522 -0.0018396019148477361 -0.00047304798827307783 0.0018161485803816905 0.0008930210065212061
 0.001867515498583397 0.0008465014133568274 -0.001839616386998457 -0.0004730499722941693 0.009863570432842136 0.015602670075446688 0.9862850871020772 -0.05083634055652361
 -0.0018302898502215615 -0.0004738075461541331 0.001816123906966687 0.0008930179566274389 0.9862850871217251 -0.05083634021162735 0.009790591330526108 0.01578171871032969
0.01 0.023906434642086416 0.051318767772463726 0.9626189908055577 -0.19224786525469365 0.006609569413417644 0.021587759259547205 -0.0038177347927985466 -0.004919040999938362
 0.9626189908056703 -0.1922478652546983 0.023821587998164424 0.051548937018120244 -0.003816361382344938 -0.004919464793551678 0.005853419826110123 0.0218497550196951
 0.006609569482657772 0.021587758825632925 -0.0038163613688758113 -0.004919465211319886 0.023808029923251983 0.05126610960018601 0.9627589728091274 -0.19181066168495106
 -0.003817734789091025 -0.00491904138900174 0.005853419765912293 0.021849754623778198 0.962758972809165 -0.1918106616849352 0.02375193542775044 0.05149305110905993
0.02 0.05537261252789716 0.08600115485658762 0.8995801606465841 -0.3636653625165718 0.02028931012374328 0.038326108573979695 -0.009446129734976771 -0.006499722822332088
 0.8995801606347442 -0.3636653625125904 0.05535180911362378 0.08668399301792412 -0.009442158838770675 -0.0065035155644665886 0.017597935308673075 0.039724825908454206
 0.020289307250176 0.03832610800510669 -0.009442160800895142 -0.006503525556002969 0.05514763468747551 0.08596655277716367 0.8999756163522988 -0.36286797126211345
 -0.009446130949723906 -0.006499732474891495 0.017597936380729713 0.03972480703120682 0.89997561636414 -0.3628679712739653 0.0552244167379097 0.08660945936039516
0.03 0.09406626995994227 0.10526639412258001 0.8095393738590959 -0.5150381640561192 0.03916525540204992 0.048210401987223914 -0.015535577315436101 -0.004021635108357184
 0.8095393738597434 -0.5150381640571462 0.0944329661488715 0.10640259591698302 -0.01553090995750326 -0.004032442289845714 0.033941218707304724 0.05212960325471395
 0.03916525500823256 0.048210403529185625 -0.01553091195297836 -0.004032444322409843 0.09369466186107911 0.10533559083376268 0.8103073204999721 -0.5139862542903058
 -0.015535578675418356 -0.004021636338647163 0.03394121707257967 0.05212959935618226 0.8103073205035245 -0.5139862543028637 0.09424503912797505 0.10634870273524652
0.04 0.13488211729373953 0.10915059760061041 0.6973177489809185 -0.6441537229544406 0.06031561398434562 0.050574894374051216 -0.019915532319622516 0.0019988874273674097
 0.6973177482557243 -0.644153722299516 0.1359491869310172 0.11051745252513512 -0.019914845080839266 0.001979014769036315 0.05265687427244825 0.05863435479375118
 0.060315615079189845 0.05057489588034603 -0.019914842802874942 0.001979013079136615 0.1343886512318857 0.10940890084856018 0.6985416246946583 -0.6429733750783029
 -0.019915529436224023 0.0019988864798774104 0.05265688056627576 0.05863435634865708 0.6985416247011785 -0.6429733750839753 0.13571700808748005 0.1105219412970288
0.05 0.17274340140235894 0.09861821654762504 0.5679393110540634 -0.7492571008301915 0.08120573572461176 0.04568465560716366 -0.021064054112916154 0.010228566853135248
 0.5679393110355737 -0.749257100835545 0.17471543809311302 0.09981522861091455 -0.02107362663806514 0.010200552060652552 0.0719292559524421 0.059458312121291955
 0.08120573759234309 0.04568465549016268 -0.02107362511676787 0.010200546793154063 0.17219169564205475 0.09912969196285201 0.5696633472053722 -0.7480823101761328
 -0.021064051799631188 0.01022856222347247 0.07192926767892387 0.05945830722102294 0.5696633472182409 -0.7480823101915258 0.17447223500089898 0.09990153753368136
0.06 0.20328532327546067 0.07607387124078334 0.4260087446928716 -0.8295670886426488 0.099833890893664 0.034399758656671046 -0.018274595042205893 0.018896081426281464
 0.4260087446903835 -0.8295670886100758 0.20618498497311077 0.07657384908817927 -0.018300383042435045 0.018864630598081574 0.09041279433215742 0.05515683537948518
 0.09983389217611582 0.03439975701890597 -0.01830038523392929 0.01886462439394141 0.20276412647634406 0.07686975156434693 0.42825175539259136 -0.8285339119724102
 -0.018274598001022963 0.018896074606438423 0.09041280123897641 0.055156819951249866 0.42825175685096273 -0.8285339112370644 0.20597147256213788 0.07674964485909108
0.07 0.22329199763483576 0.04497911723373311 0.27547328998843595 -0.8848863074248275 0.1147197925419714 0.017876290597439268 -0.011687503921855906 0.02616913294836897
 0.27547329000618087 -0.8848863074025148 0.2269092335723066 0.0442131122327162 -0.011733001955186062 0.026142356124194372 0.10714748788990348 0.046361226631515144
 0.1147197950049731 0.017876288314713332 -0.011733008813830471 0.026142352366181197 0.22290091201867004 0.04604968094460945 0.2782280629172404 -0.8841306453024631
 -0.011687510772504487 0.026169129164869485 0.10714748423430132 0.046361205217058464 0.2782280631903123 -0.8841306462506278 0.22676769604286062 0.044469069310348504
0.08 0.230841728987501 0.009417546184069276 0.11970673321085679 -0.9152048970118398 0.12478742131762403 -0.0026184954693157384 -0.002191163089953566 0.03047845154603152
 0.11970673324197487 -0.9152048970021254 0.23472494441443287 0.006874064680578898 -0.0022557666804319623 0.030466425548832873 0.1213848921771458 0.033643805007788075
 0.12478742138074406 -0.0026184984705417097 -0.0022557748318893477 0.030466425838438577 0.23067672764806688 0.010708920397037752 0.12293829845070764 -0.9148704671140787
 -0.002191171278073869 0.03047845183052438 0.121384878770732 0.03364378603184011 0.12293829682522733 -0.9148704673380558 0.2346955446063537 0.007183357708968663
0.09 0.22532935764090775 -0.026273458620702368 -0.03824219748603568 -0.9204552252943526 0.1292276259425224 -0.025755042406793133 0.008758312116501457 0.030760965285206193
 -0.038242197471601604 -0.920455225301278 0.22881748080661585 -0.030955874935599224 0.008680232545065128 0.03077364875037097 0.1324041228983392 0.0175269963758978
 0.12922762421733752 -0.025755043428437915 0.008680226709780406 0.03077365130331522 0.22546292678674093 -0.02485819897788743 -0.034604480434108804 -0.9206828725902915
 0.008758307257512574 0.03076096782285238 0.13240410775327546 0.017526984143531876 -0.034604482083581384 -0.920682872521966 0.2289293302533595 -0.03063816804243834
0.1 0.20743749558755942 -0.05781597700930644 -0.19533903550437906 -0.9004159705184047 0.12742004279315114 -0.05008057827023961 0.01936473414069224 0.026629371170649202
 -0.19533903550924608 -0.9004159705154102 0.2097237971066648 -0.06477768184340871 0.019283763333317647 0.02667410165971392 0.13939498397329045 -0.001386862533694978
 0.12742004267649007 -0.05008057854791913 0.019283761701646963 0.026674101847548717 0.20789992336965715 -0.05640550328951532 -0.19140213895640446 -0.9013318059884267
 0.01936473342612114 0.02662937125175092 0.13939498272328374 -0.0013868675221681594 -0.1914021389789304 -0.9013318059823147 0.20998603816653122 -0.06450878451866612
0.11 0.17907186573923806 -0.08131629793864299 -0.34820272788220386 -0.8547162183698118 0.11896514664991704 -0.07390174485171985 0.027768243524576415 0.018467839937316245
 -0.3482027282942356 -0.8547162192951703 0.17937011852841958 -0.09037269042558108 0.027698324531506474 0.018547592929225643 0.14146138920228032 -0.022218164384607546
 0.1189651488451019 -0.07390174449409145 0.027698330953570487 0.018547588776474354 0.1799595307716932 -0.08016638360598158 -0.3440653772322053 -0.8564418237473377
 0.027768249769847576 0.018467835639983304 0.14146139117248968 -0.02221816028537055 -0.3440653768176378 -0.856441822818049 0.17977494106416272 -0.09021009123064473
0.12 0.14337302076855046 -0.09349423947506305 -0.4929910111686141 -0.7833810761388008 0.1038854919620927 -0.09526285931016995 0.032367963678785666 0.007468505740834824
 -0.49299101279462565 -0.783381078637273 0.14083410831624205 -0.10427225861894715 0.032325036203749914 0.007578943461442188 0.13781712929083756 -0.04364972004472957
 0.10388548571574002 -0.09526285157435507 0.032325045347821 0.007578933053814935 0.1445582539652908 -0.0927186887662297 -0.4888289222298678 -0.786032739495856
 0.03236797224300199 0.007468493902422262 0.13781713687500477 -0.04364971272759527 -0.48882892057807814 -0.7860327369603539 0.14134883411791108 -0.10427667539619544
0.13 0.10447307908826521 -0.09212490346247187 -0.6252125841096803 -0.6868495059805163 0.08281862878952376 -0.11198910399695611 0.03216817842827296 -0.004509282861100739
 -0.6252125862392048 -0.6868495081116683 0.09834952677305928 -0.10400841426537383 0.03216573098717479 -0.004380339036153567 0.12803040512583505 -0.06387624177961763
 0.08281863147746815 -0.11198909716039439 0.03216574042569996 -0.00438035855078887 0.10578308421732757 -0.09181449300216722 -0.6212411249672034 -0.6905007031156958
 0.0321681876286095 -0.004509304036356658 0.12803041588979117 -0.06387623184964535 -0.621241146940538 -0.6905006792773135 0.09891586397513737 -0.10422794731347834
0.14 0.06727539318042174 -0.07640560760860132 -0.7398162726102068 -0.5665561021870029 0.05728198746409538 -0.12195563496041918 0.027109395646740874 -0.015230814564181919
 -0.7398162766856426 -0.5665561050996841 0.05696975235858771 -0.08856791320405864 0.027154339359461946 -0.015101698991916952 0.11237818658956533 -0.08073933033121111
 0.05728198622011342 -0.12195563135184345 0.02715434476141207 -0.015101729396129674 0.06849529428604095 -0.07660288388036912 -0.7362910742558358 -0.5712317867336797
 0.027109400021882293 -0.01523084444612952 0.11237821367806897 -0.08073932813632348 -0.7362910701929658 -0.571231783830126 0.0575075273052672 -0.08903018181404117
0.15 0.03697746469988186 -0.04732296404614336 -0.8315365083674126 -0.4253681929519709 0.02975891503689599 -0.12355267823993399 0.018238302243842038 -0.02258474264893615
 -0.8315365484567606 -0.42536821321970963 0.02208167724864276 -0.05875177006912638 0.018327931492623982 -0.02247622128421155 0.09209695339370291 -0.09210352367938145
 0.029758911376287986 -0.12355268214957033 0.01832792643294509 -0.022476258176127882 0.03786933423932979 -0.04799290750057043 -0.8287292762510678 -0.4310173637533446
 0.018238296832926004 -0.022584779863789088 0.09209697983870184 -0.09210352285466758 -0.8287292708707226 -0.43101736123032974 0.022498658462024194 -0.05944979188034467
0.16 0.0183625334209407 -0.007849092982062806 -0.8954878597960659 -0.26785562401233476 0.0034781547773215307 -0.11623519062589882 0.007578939668231644 -0.02518086124672799
 -0.8954878711646386 -0.2678556101260857 -0.001290700350078155 -0.01736245078512615 0.007700277213311044 -0.02511053488405696 0.0693798288430206 -0.09639453216306841
 0.003478148729486083 -0.11623518261790548 0.007700259306167286 -0.025110573281858947 0.018698034270419953 -0.008864959893210848 -0.8936664227433123 -0.274346787011029
 0.0075789206651109085 -0.025180898887236076 0.06937985013903299 -0.09639453928021026 -0.8936664122430449 -0.2743468011430859 -0.0010839695864672567 -0.018250650305338897
0.17 0.014928952921925887 0.037199058052689096 -0.9279504811739283 -0.10025067802398631 -0.018164776309426776 -0.10092379990926328 -0.0023590651564162537 -0.022834055674935558
 -0.927950486977696 -0.10025067843323565 -0.009326300756216894 0.030922967229023973 -0.002226523010015807 -0.022810944539877594 0.04702312790032137 -0.09310203367757192
 -0.01816478346759976 -0.10092379450766668 -0.002226554304458528 -0.022810980363819486 0.01453129144497413 0.03605439645632004 -0.9273469057491318 -0.10737173706988694
 -0.0023590998546418867 -0.022834091115438652 0.047023142189870935 -0.09310204806241976 -0.9273469036960615 -0.1073717043006957 -0.00939796055452297 0.0299272153446737
0.18 0.028072223971064025 0.08176951400012403 -0.9271285027442675 0.07003899055853413 -0.03240360995524946 -0.08000947418012166 -0.009322419578777602 -0.01668871821903109
 -0.927128510894781 0.07003895881599478 -0.00020169266847709644 0.08010937699607368 -0.009200988490700786 -0.016710070407714477 0.027792405344472103 -0.08299869610356927
 -0.032403619445722266 -0.08000946543926055 -0.009201034868939492 -0.01671009873672691 0.026855958185734954 0.08077966781673582 -0.9279102898181915 0.06256461802564281
 -0.009322467589872159 -0.016688746323323927 0.027792411232036306 -0.08299872186715188 -0.9279102852133554 0.0625646012138889 -0.0005821935509244241 0.07911387501532458
0.19 0.05662675230380679 0.1196067344458047 -0.8935921765316003 0.23531977394408488 -0.03780050481670115 -0.056864545098899384 -0.012017759035882501 -0.008864636412973234
 -0.8935921882864772 0.23531974380498988 0.025429114180858595 0.12383385354728907 -0.0119247691329008 -0.008916596499004803 0.013759518459488466 -0.06793044215136837
 -0.037800517309142266 -0.05686453689966606 -0.011924826247128175 -0.008916613209832839 0.05462269256719117 0.11907951652126875 -0.8958460108784068 0.22780522645219076
 -0.012017817687753793 -0.008864650647261245 0.013759514177095372 -0.06793046582219119 -0.8958460113521147 0.2278052097754047 0.02475515796108065 0.12295273945890801
0.2 0.09699898491141853 0.14543467518978911 -0.8301943066224728 0.38865479453861673 -0.034533131310898246 -0.035026964030120365 -0.010463754588945207 -0.0017505301676076614
 -0.8301943149179912 0.38865478081659915 0.06448253099672141 0.15648160619089438 -0.010406316612398946 -0.0018125938936745436 0.00590801752294111 -0.05025873985589957
 -0.03453313582414718 -0.03502694753532257 -0.010406378917994896 -0.001812592202259633 0.09435768601665817 0.145649928984471 -0.8339171818383468 0.381415640301479
 -0.010463813985097124 -0.0017505268387665958 0.005908008359781735 -0.050258751654981094 -0.833917186986372 0.38141562502848214 0.06357570496800881 0.15581311413436816
0.21 0.14389112329712342 0.1558970654464695 -0.7414266293966829 0.5246898315509152 -0.024158588540449246 -0.0174075497653824 -0.005856110490690875 0.0027390390760811322
 -0.7414266383795506 0.5246898184614838 0.11204353309469828 0.17412069432833946 -0.005829227473026655 0.0026875001491055046 0.004159892833121287 -0.03222700917982285
 -0.0241585881322579 -0.017407530520614427 -0.005829287835109691 0.0026875182996812857 0.14086017550813523 0.15706210671621512 -0.7465449610615236 0.518017677465868
 -0.005856170334350772 0.0027390591789851508 0.0041598812059719685 -0.03222701372725982 -0.7465449702884497 0.5180176645934378 0.1109960960622822 0.17373164944478095
0.22 0.19133777312424888 0.14997950281242634 -0.6325052422071422 0.6399936962770472 -0.009026923414332515 -0.005830981197646165 -6.943434679647104e-05 0.003641181639932922
 -0.6325052302868905 0.6399937064975212 0.16228524620509832 0.17499444786597845 -5.78923319817801e-05 0.0036146799111002248 0.007732909255849897 -0.015535027093547468
 -0.009026914292024851 -0.005830961317833495 -5.794254350039742e-05 0.00361471310427461 0.18822536385738015 0.15219932084610616 -0.6388949693422415 0.6341419963323087
 -6.948339255263337e-05 0.0036412165567232223 0.007732901560944064 -0.015535025759504235 -0.6388949818621944 0.6341419866829394 0.1612052016161511 0.17491249932341804
0.23 0.23370078945144457 0.12888162588563934 -0.5084997451972111 0.7328720301511329 0.00835347687900026 -0.0010015546577114174 0.004938861591020655 0.001042949741584895
 -0.508499755756109 0.732872018053585 0.20940127844644366 0.159517249143319 0.004955933590202253 0.001045740771107429 0.015595776652943812 -0.0012416258380732262
 0.008353487296106809 -0.0010015390297131764 0.00495589133262454 0.001045787300451085 0.2308328805358265 0.13214596059652794 -0.516003776714866 0.7280496454088627
 0.004938821475311495 0.0010429982565806795 0.015595778551361445 -0.0012416137108087954 -0.5160037662782843 0.7280496576110635 0.2083958687074442 0.15972912207025347
0.24 0.2663722599090287 0.09553546328691284 -0.37378321417332644 0.8028368062988633 0.025754160120501246 -0.0027638940584087425 0.007599044756353954 -0.004113594581441038
 -0.3737832112575714 0.8028368002302053 0.24831334158936508 0.12992594148929298 0.007642589967144798 -0.00408891553022135 0.02680119861088672 0.010072002707677555
 0.025754178845233032 -0.0027638855479462116 0.007642563121049529 -0.004088861733747451 0.26405342267480497 0.09972496373397295 -0.38223102869808084 0.7992193070457589
 0.007599018613816298 -0.0041135399755198535 0.02680120665542003 0.010072011015180495 -0.38223103168100236 0.7992193130801435 0.24747651803879206 0.1303849762185433
0.25 0.28613566478664654 0.054011584383663366 -0.2318646990183023 0.8499773556743253 0.04139609193456348 -0.010456697684608825 0.006991281697332313 -0.01035747609419323
 -0.23186468222498902 0.8499773533010483 0.27509053994470506 0.08979672966745404 0.007076954795643294 -0.01032886791877763 0.04060939785524106 0.018034279991900576
 0.041396109659197204 -0.010456694920705679 0.007076940293100655 -0.01032880864300031 0.2846167034290405 0.05891214439843537 -0.2410772842832823 0.8477170890212387
 0.006991267919832714 -0.010357416762093846 0.04060941543174239 0.018034284222244467 -0.24107727152642214 0.8477170996262201 0.27449489876932365 0.09043011711601823
0.26 0.2912749334515552 0.008983432128337604 -0.08554492769191596 0.8744351530022163 0.053905669710670914 -0.023191924362707433 0.002931984185754472 -0.016017396880769492
 -0.08554494951973433 0.8744351431022603 0.2871474729262876 0.04358464968658356 0.0030657586338182327 -0.016010328893029294 0.05641796473803006 0.022254794717419247
 0.053905684808837825 -0.02319192811736102 0.0030657592532841423 -0.0160102698737351 0.2907276567362294 0.014307104432694225 -0.09533221666881482 0.8736720195707078
 0.0029319855357290976 -0.01601733767435011 0.056417988470002574 0.022254790870894443 -0.09533222697042547 0.8736720262236518 0.28683954065208694 0.0443012306467395
0.27 0.281555035714071 -0.03469908634736435 0.06272976232925395 0.8760789849443905 0.06217008786826619 -0.03998634357387398 -0.004045765665109257 -0.019504867923910367
 0.06272977127093568 0.8760789755040698 0.2833285890906527 -0.00376335273549374 -0.0038706083230387834 -0.019547804912476426 0.07357695167792702 0.02221817154540092
 0.06217010011898367 -0.03998635405160776 -0.0038705950244148253 -0.019547745932453123 0.28205314569290035 -0.029289281465704513 0.05257815888458277 0.87694734418576
 -0.004045751471372953 -0.01950481207040357 0.07357697342984833 0.022218156546496746 0.05257814982589963 0.876947353578521 0.28332608635504075 -0.0030661207801718354
0.28 0.25816832345557017 -0.0723590826124617 0.21043713493480223 0.8544293539662362 0.06520086577901496 -0.0597408666410582 -0.012770327305138052 -0.01956099920572681
 0.21043714066303876 0.8544293432995251 0.26396562578699057 -0.04715065567124033 -0.012574613275048118 -0.0196796545286205 0.09117607065098228 0.017332503859650326
 0.06520086973447568 -0.05974087736744746 -0.01257458689689915 -0.01967960137156275 0.25967110289340795 -0.06721869324700078 0.20016432869283135 0.8570495561018961
 -0.012770300694884724 -0.019560945861171918 0.09117608983866823 0.017332477401860467 0.20016435423693885 0.8570495593774666 0.2642525667243313 -0.046578841852534136
0.29 0.2236662594594697 -0.09982506038738231 0.3545730054830699 0.8088055484372209 0.06209096698832991 -0.08111173346766076 -0.02156774777936636 -0.01549061268292091
 0.3545730078789257 0.8088055373952752 0.23092202373118548 -0.08169371220930591 -0.021385217788882166 -0.015701519884768363 0.1078906824316682 0.007125945913684787
