# GHz S RI R 100

0.000000000000000e+00  4.4256167430000000e-02  0.0000000000000000e+00  9.5361984460999993e-01 -1.6993849394883702e-19  9.5361984460999993e-01 -1.6993849394883702e-19  4.3696780740000003e-02  0.0000000000000000e+00
1.000000000000000e-02  4.3509018208727282e-02 -1.2156216957634983e-02  9.2404318737424807e-01 -2.2869781178336396e-01  9.2404318737424807e-01 -2.2869781178336396e-01  4.2968003412853742e-02 -1.2044073636530237e-02
2.000000000000000e-02  3.8594912547687973e-02 -2.3616121903253177e-02  8.4075897819373935e-01 -4.4289297311501152e-01  8.4075897819373935e-01 -4.4289297311501152e-01  3.8104282593954472e-02 -2.3405270984536614e-02
3.000000000000000e-02  2.9923580291638489e-02 -3.3052850915179260e-02  7.0881937860506050e-01 -6.3035997273144573e-01  7.0881937860506050e-01 -6.3035997273144573e-01  2.9508030177665033e-02 -3.2767523130679328e-02
4.000000000000000e-02  1.8257286872193655e-02 -3.9256612959875814e-02  5.3614558159814907e-01 -7.8030249193277035e-01  5.3614558159814907e-01 -7.8030249193277035e-01  1.7930477853804819e-02 -3.8928474532098814e-02
5.000000000000000e-02  4.7409621558738776e-03 -4.1268420408510580e-02  3.3303150113503754e-01 -8.8414495609872357e-01  3.3303150113503754e-01 -8.8414495609872357e-01  4.5032741070420296e-03 -4.0931964571782789e-02
6.000000000000000e-02 -9.1632836571242590e-03 -3.8517852977734676e-02  1.1152151996013274e-01 -9.3606194317755964e-01  1.1152151996013274e-01 -9.3606194317755964e-01 -9.3252078865793883e-03 -3.8205176315283924e-02
7.000000000000001e-02 -2.1806708270403569e-02 -3.0942642538211169e-02 -1.1532025013074981e-01 -9.3332563807740421e-01 -1.1532025013074981e-01 -9.3332563807740421e-01 -2.1918498805218886e-02 -3.0678261193908714e-02
8.000000000000000e-02 -3.1538020059939768e-02 -1.9059026227252369e-02 -3.3420425130739878e-01 -8.7645605040137986e-01 -3.3420425130739878e-01 -8.7645605040137986e-01 -3.1634281769714501e-02 -1.8855396932126168e-02
9.000000000000001e-02 -3.6917495975887754e-02 -3.9578912881314057e-03 -5.3242056253956838e-01 -7.6916457809717698e-01 -5.3242056253956838e-01 -7.6916457809717698e-01 -3.7036983002888019e-02 -3.8122557369109876e-03
1.000000000000000e-01 -3.6926810598232829e-02  1.2785658025566991e-02 -6.9859940725216374e-01 -6.1809569193110270e-01 -6.9859940725216374e-01 -6.1809569193110270e-01 -3.7106587294107894e-02  1.2892626455916652e-02
1.100000000000000e-01 -3.1136334990298983e-02  2.9284456817630401e-02 -8.2337492450894956e-01 -4.3238756576516735e-01 -8.2337492450894956e-01 -4.3238756576516735e-01 -3.1405566513501591e-02  2.9387905058297838e-02
1.200000000000000e-01 -1.9796498128284313e-02  4.3570574280984216e-02 -8.9990894675368727e-01 -2.2308701892649138e-01 -8.9990894675368727e-01 -2.2308701892649141e-01 -2.0170602809431004e-02  4.3718554382996017e-02
1.300000000000000e-01 -3.8328733543068652e-03  5.3849601889202993e-02 -9.2424529071971073e-01 -2.4642455042152732e-03 -9.2424529071971073e-01 -2.4642455042152732e-03 -4.3087519458890411e-03  5.4098172140347817e-02
1.400000000000000e-01  1.5257304403958890e-02  5.8735901218942267e-02 -8.9548078823259936e-01  2.1672272790114699e-01 -8.9548078823259936e-01  2.1672272790114699e-01  1.4704332370619017e-02  5.9142653410124951e-02
1.500000000000000e-01  3.5590804984048680e-02  5.7429965054308203e-02 -8.1575427721273031e-01  4.2196612233638886e-01 -8.1575427721273031e-01  4.2196612233638886e-01  3.5007898668587126e-02  5.8046568359202362e-02
1.600000000000000e-01  5.5134971086317826e-02  4.9810278184888507e-02 -6.9006642220604208e-01  6.0170672513841028e-01 -6.9006642220604208e-01  6.0170672513841028e-01  5.4590235542074032e-02  5.0674737742465274e-02
1.700000000000000e-01  7.1955877568615559e-02  3.6428398815181229e-02 -5.2595069354753388e-01  7.4595897717990423e-01 -5.2595069354753388e-01  7.4595897717990423e-01  7.1534348220887181e-02  3.7557778918863263e-02
1.800000000000000e-01  8.4438856048417707e-02  1.8413623327427461e-02 -3.3301959707632900e-01  8.4683654706303491e-01 -3.3301959707632900e-01  8.4683654706303491e-01  8.4236158217839446e-02  1.9797980359495520e-02
1.900000000000000e-01  9.1449707994023632e-02 -2.6911798371975866e-03 -1.2241186576373189e-01  8.9895846909719901e-01 -1.2241186576373189e-01  8.9895846909719901e-01  9.1563746131191587e-02 -1.0929541847110556e-03
2.000000000000000e-01  9.2417798433124781e-02 -2.5130969103899621e-02  9.3832649109511557e-02  8.9972033770068538e-01  9.3832649109511557e-02  8.9972033770068527e-01  9.2939061015397784e-02 -2.3392790035034503e-02
2.100000000000000e-01  8.7337613114870857e-02 -4.7142267726132336e-02  3.0344162858376211e-01  8.4941858156130901e-01  3.0344162858376211e-01  8.4941858156130901e-01  8.8338824032850510e-02 -4.5369555968325037e-02
2.200000000000000e-01  7.6699870684057592e-02 -6.7127948490393941e-02  4.9459098862694151e-01  7.5122020359768948e-01  4.9459098862694151e-01  7.5122020359768948e-01  7.8225877681800976e-02 -6.5453167772320991e-02
2.300000000000000e-01  6.1374387672994607e-02 -8.3780951166362055e-02  6.5656319279392794e-01  6.1097634365036435e-01  6.5656319279392794e-01  6.1097634365036435e-01  6.3433248445355347e-02 -8.2356043053933334e-02
2.400000000000000e-01  4.2472442839248982e-02 -9.6147403301875795e-02  7.8034706298416801e-01  4.3688596546752689e-01  7.8034706298416801e-01  4.3688596546752689e-01  4.5028607535933851e-02 -9.5133445600373456e-02
2.500000000000000e-01  2.1215675145707720e-02 -1.0363268027986000e-01  8.5914373143769529e-01  2.3902531764841167e-01  8.5914373143769529e-01  2.3902531764841167e-01  2.4186128572840804e-02 -1.0318738930438262e-01
2.600000000000000e-01 -1.1676304919726148e-03 -1.0596477166834659e-01  8.8874731570308629e-01  2.8768294660347242e-02  8.8874731570308629e-01  2.8768294660347242e-02  2.0863538932484067e-03 -1.0622868296626653e-01
2.700000000000000e-01 -2.3508138649918360e-02 -1.0313559094838055e-01  8.6777596751821551e-01 -1.8186903561981665e-01  8.6777596751821551e-01 -1.8186903561981665e-01 -2.0145398049717239e-02 -1.0421795524018693e-01
2.800000000000000e-01 -4.4723390653324556e-02 -9.5341666546279069e-02  7.9773832226642361e-01 -3.8092067867597040e-01  7.9773832226642361e-01 -3.8092067867597040e-01 -4.1462843976075789e-02 -9.7307206778321303e-02
2.900000000000000e-01 -6.3818260385255399e-02 -8.2941150932873228e-02  6.8293106311574547e-01 -5.5715801063410830e-01  6.8293106311574547e-01 -5.5715801063410830e-01 -6.0895280663037447e-02 -8.5798890645542955e-02
3.000000000000000e-01 -7.9874119883924538e-02 -6.6435849771311756e-02  5.3017412441155387e-01 -7.0073074426409809e-01  5.3017412441155387e-01 -7.0073074426409809e-01 -7.7533422759600457e-02 -7.0131155974404391e-02
3.100000000000000e-01 -9.2044056893759968e-02 -4.6477301387179967e-02  3.4840017353497599e-01 -8.0372335376831083e-01  3.4840017353497599e-01 -8.0372335376831083e-01 -9.0522203025668657e-02 -5.0888135111350818e-02
3.200000000000000e-01 -9.9567832559855629e-02 -2.3887283267534799e-02  1.4812390208766071e-01 -8.6059421507679379e-01  1.4812390208766071e-01 -8.6059421507679379e-01 -9.9074539671848760e-02 -2.8825352283600645e-02
3.300000000000000e-01 -1.0181308701900682e-01  3.2245901326011001e-04 -5.9176148273956244e-02 -8.6847212738591306e-01 -5.9176148273956244e-02 -8.6847212738591306e-01 -1.0251275761028018e-01 -4.8946745003199763e-03
3.400000000000000e-01 -9.8340461728717840e-02  2.4947793541997772e-02 -2.6172526150112391e-01 -8.2729388948983518e-01 -2.6172526150112391e-01 -8.2729388948983518e-01 -1.0033539213418846e-01  1.9748129776040100e-02
3.500000000000000e-01 -8.8982038557348667e-02  4.8620539464351346e-02 -4.4812901704673025e-01 -7.3977669871549012e-01 -4.4812901704673025e-01 -7.3977669871549012e-01 -9.2298735399970605e-02  4.3767093460485303e-02
3.600000000000000e-01 -7.3916743107742905e-02  6.9874396387270957e-02 -6.0801774091816640e-01 -6.1122975613192643e-01 -6.0801774091816640e-01 -6.1122975613192643e-01 -7.8496605765545707e-02  6.5708226049443458e-02
3.700000000000000e-01 -5.3724391027048762e-02  8.7246773031888825e-02 -7.3262117683163042e-01 -4.4921962977368923e-01 -7.3262117683163042e-01 -4.4921962977368923e-01 -5.9419763645744847e-02  8.4098815567550778e-02
3.800000000000000e-01 -2.9402238109541984e-02  9.9406369917159162e-02 -8.1524104026656596e-01 -2.6311286644862741e-01 -8.1524104026656596e-01 -2.6311286644862741e-01 -3.5978474346984965e-02  9.7573979327803456e-02
3.900000000000000e-01 -2.3336410581005921e-03  1.0528983510300757e-01 -8.5159701849179592e-01 -6.3526054500008908e-02 -8.5159701849179581e-01 -6.3526054500008908e-02 -9.4773941276468775e-03  1.0501393253570007e-01
4.000000000000000e-01  2.5793569695257968e-02  1.0422750905655775e-01 -8.4003060298246801e-01  1.3828227096069504e-01 -8.4003060298246801e-01  1.3828227096069504e-01  1.8460112531182470e-02  1.0567200701176843e-01
4.100000000000000e-01  5.3112886893983684e-02  9.6038737454178111e-02 -7.8156047385935734e-01  3.3104222119010795e-01 -7.8156047385935734e-01  3.3104222119010795e-01  4.6012515528698089e-02  9.9273737406833651e-02
4.200000000000000e-01  7.7735523119425678e-02  8.1081151943642710e-02 -6.7979162151210037e-01  5.0409096269372644e-01 -6.7979162151210037e-01  5.0409096269372644e-01  7.1312319278026740e-02  8.6071178848904209e-02
4.300000000000000e-01  9.7918775348281653e-02  6.0244840185789142e-02 -5.4068771506829727e-01  6.4794722673367611e-01 -5.4068771506829727e-01  6.4794722673367611e-01  9.2611514094888422e-02  6.6843071229716611e-02
4.400000000000000e-01  1.1222569715249343e-01  3.4890125832151758e-02 -3.7222219873627954e-01  7.5481394577114769e-01 -3.7222219873627954e-01  7.5481394577114769e-01  1.0843980734371485e-01  4.2839296496067096e-02
4.500000000000000e-01  1.1965658739662165e-01  6.7355090188449939e-03 -1.8392814465364499e-01  8.1898582247808616e-01 -1.8392814465364499e-01  8.1898582247808616e-01  1.1773629748036325e-01  1.5675847854971670e-02
4.600000000000000e-01  1.1973681555358789e-01 -2.2291082168698146e-02  1.3629478625882480e-02  8.3714321819594595e-01  1.3629478625882480e-02  8.3714321819594595e-01  1.1993924016152781e-01 -1.2806901184190575e-02
4.700000000000000e-01  1.1255156454150801e-01 -5.0220124325160001e-02  2.0943251326765527e-01  8.0851886859648048e-01  2.0943251326765527e-01  8.0851886859648048e-01  1.1502449922954781e-01 -4.0705477022698278e-02
4.800000000000000e-01  9.8725167623411617e-02 -7.5208033768770680e-02  3.9261067336887923e-01  7.3492925176380020e-01  3.9261067336887923e-01  7.3492925176380020e-01  1.0349025573784826e-01 -6.6215205614512856e-02
4.900000000000000e-01  7.9349685374601533e-02 -9.5685980397573950e-02  5.5303462828784777e-01  6.2066828957871345e-01  5.5303462828784777e-01  6.2066828957871345e-01  8.6292434261357132e-02 -8.7774769275573747e-02
5.000000000000000e-01  5.5873381710025580e-02 -1.1047495895264563e-01  6.8187042120596986e-01  4.7226744282662325e-01  6.8187042120596986e-01  4.7226744282662325e-01  6.4741057142007188e-02 -1.0417875631030843e-01
5.100000000000000e-01  2.9963786170119251e-02 -1.1885724851789768e-01  7.7206525358369260e-01  2.9813315654407063e-01  7.7206525358369260e-01  2.9813315654407063e-01  4.0371833511311371e-02 -1.1464861510165690e-01
5.200000000000000e-01  3.3618949687633480e-03 -1.2060044106272737e-01  8.1873720149221407e-01  1.0807957216127982e-01  8.1873720149221407e-01  1.0807957216127982e-01  1.4808965897331848e-02 -1.1885831907011493e-01
5.300000000000000e-01 -2.2256476595592854e-02 -1.1593629728972522e-01  8.1944577364906590e-01 -8.7219011765635568e-02  8.1944577364906590e-01 -8.7219011765635568e-02 -1.0365321021408342e-02 -1.1691698782624306e-01
5.400000000000000e-01 -4.5398838494644919e-02 -1.0550178865307877e-01  7.7432642074573077e-01 -2.7682589530857038e-01  7.7432642074573077e-01 -2.7682589530857038e-01 -3.3721679456768627e-02 -1.0931572493223024e-01
5.500000000000000e-01 -6.4844444080896541e-02 -9.0253288067625240e-02  6.8607984387874599e-01 -4.5015613017164124e-01  6.8607984387874599e-01 -4.5015613017164124e-01 -5.4066214040177897e-02 -9.6849412759406145e-02
5.600000000000001e-01 -7.9698637415720489e-02 -7.1366460579397190e-02  5.5981561608741326e-01 -5.9757155691425201e-01  5.5981561608741326e-01 -5.9757155691425201e-01 -7.0490864767913372e-02 -8.0525762543611851e-02
5.700000000000001e-01 -8.9413560563747108e-02 -5.0134135729441240e-02  4.0275858096551598e-01 -7.1092195993402885e-01  4.0275858096551598e-01 -7.1092195993402885e-01 -8.2392509981148596e-02 -6.1473435097189416e-02
5.800000000000001e-01 -9.3779695128352991e-02 -2.7872458115184552e-02  2.2383490548718743e-01 -7.8400068523763855e-01  2.2383490548718743e-01 -7.8400068523763855e-01 -8.9465637009734450e-02 -4.0858889090595027e-02
5.900000000000001e-01 -9.2895462805061821e-02 -5.8425058411136575e-03  3.3162021884777175e-02 -8.1288815026595440e-01  3.3162021884777168e-02 -8.1288815026595440e-01 -9.1675939695045269e-02 -1.9818312772890756e-02
6.000000000000001e-01 -8.7123354628395405e-02  1.4809163769247582e-02 -1.5852754711395900e-01 -7.9616359634491252e-01 -1.5852754711395900e-01 -7.9616359634491252e-01 -8.9223125697860117e-02  5.9273393502388971e-04
6.100000000000000e-01 -7.7040652654333047e-02  3.3091205779259857e-02 -3.4049470852769304e-01 -7.3497338088984554e-01 -3.4049470852769304e-01 -7.3497338088984554e-01 -8.2500557510328698e-02  1.9432827439474790e-02
6.200000000000000e-01 -6.3391044120382503e-02  4.8192452700738631e-02 -5.0259917971895074e-01 -6.3295283397320778e-01 -5.0259917971895063e-01 -6.3295283397320778e-01 -7.2057436338039876e-02  3.5894888293866306e-02
6.300000000000000e-01 -4.7040792653751981e-02  5.9495853925454048e-02 -6.3586696955350308e-01 -4.9600731620785721e-01 -6.3586696955350308e-01 -4.9600731620785721e-01 -5.8566528967177289e-02  4.9318111966569433e-02
6.400000000000000e-01 -2.8940261919991044e-02  6.6586324652365220e-02 -7.3298761351621866e-01 -3.3196643126731906e-01 -7.3298761351621866e-01 -3.3196643126731906e-01 -4.2797538923439557e-02  5.9196741128404867e-02
6.500000000000000e-01 -1.0089137971841767e-02  6.9256383850990075e-02 -7.8871373825746016e-01 -1.5013220094397206e-01 -7.8871373825746016e-01 -1.5013220094397206e-01 -2.5593723353561720e-02  6.5189555444188238e-02
6.600000000000000e-01  8.4978629025570553e-03  6.7511450484869812e-02 -8.0014105151703485e-01  3.9251737919838346e-02 -8.0014105151703485e-01  3.9251737919838353e-02 -7.8478232958290976e-03  6.7131783242808579e-02
6.700000000000000e-01  2.5828352769180010e-02  6.1574216104719012e-02 -7.6685451794187665e-01  2.2557917438798872e-01 -7.6685451794187665e-01  2.2557917438798872e-01  9.5269230506904844e-03  6.5048488485601019e-02
6.800000000000000e-01  4.0975336524536103e-02  5.1885204993415458e-02 -6.9093403699830469e-01  3.9847536101652681e-01 -6.9093403699830469e-01  3.9847536101652681e-01  2.5633862112099996e-02  5.9165997861984947e-02
6.900000000000001e-01  5.3126608596320291e-02  3.9095015216226610e-02 -5.7682111350959853e-01  5.4837267164501580e-01 -5.7682111350959853e-01  5.4837267164501580e-01  3.9639109255231661e-02  4.9916218381254512e-02
7.000000000000001e-01  6.1638415302186424e-02  2.4043259031609625e-02 -4.3105588943485629e-01  6.6703600058914936e-01 -4.3105588943485629e-01  6.6703600058914936e-01  5.0824945940698647e-02  3.7928174441304224e-02
7.100000000000001e-01  6.6088496701169661e-02  7.7201455601480558e-03 -2.6190068660718591e-01  7.4800986304333916e-01 -2.6190068660718591e-01  7.4800986304333916e-01  5.8645599818414135e-02  2.4002023840630438e-02
7.200000000000001e-01  6.6321384520138957e-02 -8.7910554666708399e-03 -7.8872209924666009e-02  7.8696363886418763e-01 -7.8872209924666009e-02  7.8696363886418763e-01  6.2778190259143857e-02  9.0631087261988583e-03
7.300000000000001e-01  6.2477753849804113e-02 -2.4389115599857965e-02  1.0779090159566623e-01  7.8191758796164801e-01  1.0779090159566623e-01  7.8191758796164801e-01  6.3160418084039993e-02 -5.9030754471918459e-03
7.400000000000000e-01  5.5000158117800874e-02 -3.8042248352242021e-02  2.8769604746744937e-01  7.3333904026193686e-01  2.8769604746744937e-01  7.3333904026193686e-01  6.0006937057533891e-02 -1.9930354279256476e-02
7.500000000000000e-01  4.4609624915768115e-02 -4.8879139055233785e-02  4.5086934401241030e-01  6.4410488778777453e-01  4.5086934401241030e-01  6.4410488778777453e-01  5.3798331102396998e-02 -3.2157661586947155e-02
7.600000000000000e-01  3.2251250426082789e-02 -5.6272586344109650e-02  5.8830278495544430e-01  5.1933344126918257e-01  5.8830278495544430e-01  5.1933344126918257e-01  4.5240154838059377e-02 -4.1910494994359622e-02
7.700000000000000e-01  1.9011453396895684e-02 -5.9904000220256035e-02  6.9244713041297690e-01  3.6609512607939992e-01  6.9244713041297690e-01  3.6609512607939992e-01  3.5193925520421721e-02 -4.8766482848126416e-02
7.800000000000000e-01  6.0143226662234452e-03 -5.9798223131839925e-02  7.5762455422609154e-01  1.9301742118907078e-01  7.5762455422609154e-01  1.9301742118907078e-01  2.4586733571793612e-02 -5.2594520665439529e-02
7.900000000000000e-01 -5.6914171715738053e-03 -5.6321345200703955e-02  7.8033891765222752e-01  9.8047450548725042e-03  7.8033891765222752e-01  9.8047450548725042e-03  1.4310244199941292e-02 -5.3559955567705771e-02
8.000000000000000e-01 -1.5240666326348358e-02 -5.0138975821530915e-02  7.5946637915793069e-01 -1.7330136260042137e-01  7.5946637915793069e-01 -1.7330136260042137e-01  5.1226017711760510e-03 -5.2092960463573916e-02
8.100000000000001e-01 -2.2040732537389033e-02 -4.2138161362670817e-02  6.9631496214207034e-01 -3.4609280369367518e-01  6.9631496214207034e-01 -3.4609280369367518e-01 -2.4326385851836073e-03 -4.8822857436216616e-02
8.200000000000001e-01 -2.5827772116022354e-02 -3.3321859582479095e-02  5.9454851471813019e-01 -4.9896483176595763e-01  5.9454851471813019e-01 -4.9896483176595763e-01 -8.0782298995530910e-03 -4.4486803686000331e-02
8.300000000000001e-01 -2.6682151894382285e-02 -2.4689616456220309e-02  4.5997809015361413e-01 -6.2345308800420396e-01  4.5997809015361413e-01 -6.2345308800420396e-01 -1.1817385473799555e-02 -3.9825818637665621e-02
8.400000000000001e-01 -2.4999936094626148e-02 -1.7120884708443827e-02  3.0023157966062020e-01 -7.1270671760067139e-01  3.0023157966062020e-01 -7.1270671760067139e-01 -1.3907969797284966e-02 -3.5483672661184192e-02
8.500000000000001e-01 -2.1424503827077071e-02 -1.1277542003888910e-02  1.2432008157788287e-01 -7.6186963995923773e-01  1.2432008157788287e-01 -7.6186963995923773e-01 -1.4800811699618818e-02 -3.1924064992079594e-02
8.600000000000001e-01 -1.6748716538037306e-02 -7.5393649333864252e-03 -5.7873857583672750e-02 -7.6834735545435562e-01 -5.7873857583672750e-02 -7.6834735545435562e-01 -1.5052207853064131e-02 -2.9378703450129356e-02
8.700000000000001e-01 -1.1802763013452927e-02 -5.9808880991241552e-03 -2.3615583220411152e-01 -7.3194373417431136e-01 -2.3615583220411152e-01 -7.3194373417431136e-01 -1.5225009461942593e-02 -2.7833785339464685e-02
8.800000000000000e-01 -7.3448541556199939e-03 -6.3912446083198189e-03 -4.0059384967345946e-01 -6.5486050565212872e-01 -4.0059384967345946e-01 -6.5486050565212872e-01 -1.5794530228665157e-02 -2.7055871867546946e-02
8.900000000000000e-01 -3.9709226387292032e-03 -8.3315305107560730e-03 -5.4207358126906258e-01 -5.4156092010146750e-01 -5.4207358126906258e-01 -5.4156092010146750e-01 -1.7074448347253801e-02 -2.6651396287446741e-02
9.000000000000000e-01 -2.0556392915313595e-03 -1.1218314336489767e-02 -6.5280302828462955e-01 -3.9850725083059824e-01 -6.5280302828462955e-01 -3.9850725083059824e-01 -1.9174054744025740e-02 -2.6148354206072769e-02
9.100000000000000e-01 -1.7311560605646620e-03 -1.4418185301832295e-02 -7.2673882271450552e-01 -2.3378895018316925e-01 -7.2673882271450552e-01 -2.3378895018316925e-01 -2.1992308872339834e-02 -2.5085238060915518e-02
9.200000000000000e-01 -2.9031175021050661e-03 -1.7337359978407525e-02 -7.5991181446345413e-01 -5.6663814372053506e-02 -7.5991181446345413e-01 -5.6663814372053506e-02 -2.5247420316213395e-02 -2.3091562065874635e-02
